Circuit: * C:\Users\osari\Desktop\lab2\1\Draft1.asc

Direct Newton iteration for .op point succeeded.
Semiconductor Device Operating Points:
                        --- Bipolar Transistors ---
Name:       q2          q1
Model:     bc238       bc238
Ib:       1.25e-07    4.21e-06
Ic:       2.24e-05    1.13e-03
Vbe:      5.37e-01    6.42e-01
Vbc:     -1.13e+01    0.00e+00
Vce:      1.19e+01    6.42e-01
BetaDC:   1.78e+02    2.69e+02
Gm:       8.67e-04    4.35e-02
Rpi:      2.53e+05    6.73e+03
Rx:       5.60e-01    5.60e-01
Ro:       3.93e+06    6.71e+04
Cbe:      1.92e-11    4.80e-11
Cbc:      1.44e-12    4.00e-12
Cjs:      0.00e+00    0.00e+00
BetaAC:   2.19e+02    2.92e+02
Cbx:      0.00e+00    0.00e+00
Ft:       6.67e+06    1.33e+08



Date: Fri Oct 15 11:42:26 2021
Total elapsed time: 0.024 seconds.

tnom = 27
temp = 27
method = trap
totiter = 11
traniter = 0
tranpoints = 0
accept = 0
rejected = 0
matrix size = 13
fillins = 0
solver = Normal
Matrix Compiler1: 816 bytes object code size
Matrix Compiler2: 1.00 KB object code size
